T684C 000:007.090   SEGGER J-Link V8.96 Log File
T684C 000:007.180   DLL Compiled: Dec 18 2025 16:46:38
T684C 000:007.184   Logging started @ 2026-04-25 09:01
T684C 000:007.187   Process: C:\Keil_v5\UV4\UV4.exe
T684C 000:007.196 - 7.190ms 
T684C 000:007.202 JLINK_SetWarnOutHandler(...)
T684C 000:007.205 - 0.004ms 
T684C 000:007.209 JLINK_OpenEx(...)
T684C 000:010.618   Firmware: J-Link V9 compiled May  7 2021 16:26:12
T684C 000:011.514   Firmware: J-Link V9 compiled May  7 2021 16:26:12
T684C 000:011.626   Decompressing FW timestamp took 87 us
T684C 000:020.443   Hardware: V9.40
T684C 000:020.505   S/N: 69402830
T684C 000:020.533   OEM: SEGGER
T684C 000:020.549   Feature(s): RDI, GDB, FlashDL, FlashBP, JFlash
T684C 000:021.313   Bootloader: (FW returned invalid version)
T684C 000:022.114   TELNET listener socket opened on port 19021
T684C 000:022.200   WEBSRV WEBSRV_Init(): Starting webserver thread(s)
T684C 000:022.276   WEBSRV Webserver running on local port 19080
T684C 000:022.346   Looking for J-Link GUI Server exe at: C:\Keil_v5\ARM\Segger\JLinkGUIServer.exe
T684C 000:022.395   Looking for J-Link GUI Server exe at: C:\Program Files\SEGGER\JLink\JLinkGUIServer.exe
T684C 000:022.415   Forking J-Link GUI Server: C:\Program Files\SEGGER\JLink\JLinkGUIServer.exe
T684C 000:064.208   J-Link GUI Server info: "J-Link GUI server V8.96 "
T684C 000:067.388 - 60.174ms returns "O.K."
T684C 000:067.422 JLINK_GetEmuCaps()
T684C 000:067.427 - 0.003ms returns 0xB9FF7BBF
T684C 000:067.431 JLINK_TIF_GetAvailable(...)
T684C 000:067.671 - 0.239ms 
T684C 000:067.682 JLINK_SetErrorOutHandler(...)
T684C 000:067.686 - 0.003ms 
T684C 000:067.711 JLINK_ExecCommand("ProjectFile = "E:\My_enginerring\Robo_2\Volley_V2.1\MDK-ARM\JLinkSettings.ini"", ...). 
T684C 000:077.209   Ref file found at: C:\Keil_v5\ARM\Segger\JLinkDevices.ref
T684C 000:077.270   REF file references invalid XML file: C:\Program Files\SEGGER\JLink\JLinkDevices.xml
T684C 000:078.106 - 10.396ms returns 0x00
T684C 000:078.138 JLINK_ExecCommand("Device = STM32F407VETx", ...). 
T684C 000:079.214   Device "STM32F407VE" selected.
T684C 000:079.399 - 1.256ms returns 0x00
T684C 000:079.407 JLINK_ExecCommand("DisableConnectionTimeout", ...). 
T684C 000:079.416   ERROR: Unknown command
T684C 000:079.421 - 0.009ms returns 0x01
T684C 000:079.427 JLINK_GetHardwareVersion()
T684C 000:079.431 - 0.004ms returns 94000
T684C 000:079.435 JLINK_GetDLLVersion()
T684C 000:079.438 - 0.003ms returns 89600
T684C 000:079.442 JLINK_GetOEMString(...)
T684C 000:079.446 JLINK_GetFirmwareString(...)
T684C 000:079.449 - 0.003ms 
T684C 000:079.463 JLINK_GetDLLVersion()
T684C 000:079.466 - 0.003ms returns 89600
T684C 000:079.470 JLINK_GetCompileDateTime()
T684C 000:079.473 - 0.003ms 
T684C 000:079.480 JLINK_GetFirmwareString(...)
T684C 000:079.483 - 0.003ms 
T684C 000:079.489 JLINK_GetHardwareVersion()
T684C 000:079.492 - 0.003ms returns 94000
T684C 000:079.501 JLINK_GetSN()
T684C 000:079.504 - 0.003ms returns 69402830
T684C 000:079.510 JLINK_GetOEMString(...)
T684C 000:079.520 JLINK_TIF_Select(JLINKARM_TIF_SWD)
T684C 000:080.378 - 0.858ms returns 0x00
T684C 000:080.391 JLINK_HasError()
T684C 000:080.406 JLINK_SetSpeed(5000)
T684C 000:080.653 - 0.248ms 
T684C 000:080.666 JLINK_GetId()
T684C 000:080.854   InitTarget() start
T684C 000:080.866    J-Link Script File: Executing InitTarget()
T684C 000:081.171   SWD selected. Executing JTAG -> SWD switching sequence.
T684C 000:083.138   DAP initialized successfully.
T684C 000:088.973   InitTarget() end - Took 8.09ms
T684C 000:089.587   Found SW-DP with ID 0x2BA01477
T684C 000:092.020   DPIDR: 0x2BA01477
T684C 000:092.040   CoreSight SoC-400 or earlier
T684C 000:092.050   Scanning AP map to find all available APs
T684C 000:092.742   AP[1]: Stopped AP scan as end of AP map has been reached
T684C 000:092.754   AP[0]: AHB-AP (IDR: 0x24770011, ADDR: 0x00000000)
T684C 000:092.761   Iterating through AP map to find AHB-AP to use
T684C 000:093.811   AP[0]: Core found
T684C 000:093.830   AP[0]: AHB-AP ROM base: 0xE00FF000
T684C 000:094.350   CPUID register: 0x410FC241. Implementer code: 0x41 (ARM)
T684C 000:094.361   Found Cortex-M4 r0p1, Little endian.
T684C 000:094.759   -- Max. mem block: 0x00010E60
T684C 000:095.240   CPU_ReadMem(4 bytes @ 0xE000EDF0)
T684C 000:095.525   CPU_ReadMem(4 bytes @ 0xE0002000)
T684C 000:095.896   FPUnit: 6 code (BP) slots and 2 literal slots
T684C 000:095.924   CPU_ReadMem(4 bytes @ 0xE000EDFC)
T684C 000:096.232   CPU_WriteMem(4 bytes @ 0xE000EDFC)
T684C 000:096.565   CPU_ReadMem(4 bytes @ 0xE0001000)
T684C 000:096.958   CPU_WriteMem(4 bytes @ 0xE0001000)
T684C 000:097.324   CPU_ReadMem(4 bytes @ 0xE000ED88)
T684C 000:097.768   CPU_WriteMem(4 bytes @ 0xE000ED88)
T684C 000:098.221   CPU_ReadMem(4 bytes @ 0xE000ED88)
T684C 000:098.615   CPU_WriteMem(4 bytes @ 0xE000ED88)
T684C 000:099.039   CoreSight components:
T684C 000:099.058   ROMTbl[0] @ E00FF000
T684C 000:099.063   CPU_ReadMem(64 bytes @ 0xE00FF000)
T684C 000:099.810   CPU_ReadMem(32 bytes @ 0xE000EFE0)
T684C 000:100.448   [0][0]: E000E000 CID B105E00D PID 000BB00C SCS-M7
T684C 000:100.481   CPU_ReadMem(32 bytes @ 0xE0001FE0)
T684C 000:101.064   [0][1]: E0001000 CID B105E00D PID 003BB002 DWT
T684C 000:101.097   CPU_ReadMem(32 bytes @ 0xE0002FE0)
T684C 000:101.638   [0][2]: E0002000 CID B105E00D PID 002BB003 FPB
T684C 000:101.672   CPU_ReadMem(32 bytes @ 0xE0000FE0)
T684C 000:102.179   [0][3]: E0000000 CID B105E00D PID 003BB001 ITM
T684C 000:102.184   CPU_ReadMem(32 bytes @ 0xE0040FE0)
T684C 000:102.714   [0][4]: E0040000 CID B105900D PID 000BB9A1 TPIU
T684C 000:102.745   CPU_ReadMem(32 bytes @ 0xE0041FE0)
T684C 000:103.303   [0][5]: E0041000 CID B105900D PID 000BB925 ETM
T684C 000:103.634 - 22.966ms returns 0x2BA01477
T684C 000:103.675 JLINK_GetDLLVersion()
T684C 000:103.678 - 0.003ms returns 89600
T684C 000:103.682 JLINK_CORE_GetFound()
T684C 000:103.685 - 0.003ms returns 0xE0000FF
T684C 000:103.690 JLINK_GetDebugInfo(0x100 = JLINKARM_ROM_TABLE_ADDR_INDEX)
T684C 000:103.693   Value=0xE00FF000
T684C 000:103.697 - 0.007ms returns 0
T684C 000:103.705 JLINK_GetDebugInfo(0x100 = JLINKARM_ROM_TABLE_ADDR_INDEX)
T684C 000:103.708   Value=0xE00FF000
T684C 000:103.712 - 0.007ms returns 0
T684C 000:103.716 JLINK_GetDebugInfo(0x101 = JLINKARM_DEBUG_INFO_ETM_ADDR_INDEX)
T684C 000:103.719   Value=0xE0041000
T684C 000:103.723 - 0.007ms returns 0
T684C 000:103.732 JLINK_ReadMemEx(0xE0041FD0, 0x20 Bytes, Flags = 0x02000004)
T684C 000:103.749   CPU_ReadMem(32 bytes @ 0xE0041FD0)
T684C 000:104.303   Data:  04 00 00 00 00 00 00 00 00 00 00 00 00 00 00 00 ...
T684C 000:104.334 - 0.600ms returns 32 (0x20)
T684C 000:104.366 JLINK_GetDebugInfo(0x102 = JLINKARM_DEBUG_INFO_MTB_ADDR_INDEX)
T684C 000:104.386   Value=0x00000000
T684C 000:104.405 - 0.042ms returns 0
T684C 000:104.409 JLINK_GetDebugInfo(0x103 = JLINKARM_DEBUG_INFO_TPIU_ADDR_INDEX)
T684C 000:104.412   Value=0xE0040000
T684C 000:104.416 - 0.006ms returns 0
T684C 000:104.420 JLINK_GetDebugInfo(0x104 = JLINKARM_DEBUG_INFO_ITM_ADDR_INDEX)
T684C 000:104.422   Value=0xE0000000
T684C 000:104.426 - 0.006ms returns 0
T684C 000:104.430 JLINK_GetDebugInfo(0x105 = JLINKARM_DEBUG_INFO_DWT_ADDR_INDEX)
T684C 000:104.433   Value=0xE0001000
T684C 000:104.437 - 0.006ms returns 0
T684C 000:104.440 JLINK_GetDebugInfo(0x106 = JLINKARM_DEBUG_INFO_FPB_ADDR_INDEX)
T684C 000:104.443   Value=0xE0002000
T684C 000:104.447 - 0.007ms returns 0
T684C 000:104.451 JLINK_GetDebugInfo(0x107 = JLINKARM_DEBUG_INFO_NVIC_ADDR_INDEX)
T684C 000:104.454   Value=0xE000E000
T684C 000:104.458 - 0.007ms returns 0
T684C 000:104.462 JLINK_GetDebugInfo(0x10C = JLINKARM_DEBUG_INFO_DBG_ADDR_INDEX)
T684C 000:104.465   Value=0xE000EDF0
T684C 000:104.469 - 0.007ms returns 0
T684C 000:104.473 JLINK_GetDebugInfo(0x01 = Unknown)
T684C 000:104.476   Value=0x00000001
T684C 000:104.481 - 0.007ms returns 0
T684C 000:104.485 JLINK_ReadMemU32(0xE000ED00, 0x1 Items)
T684C 000:104.489   CPU_ReadMem(4 bytes @ 0xE000ED00)
T684C 000:104.961   Data:  41 C2 0F 41
T684C 000:104.967   Debug reg: CPUID
T684C 000:104.974 - 0.489ms returns 1 (0x1)
T684C 000:104.980 JLINK_GetDebugInfo(0x10F = JLINKARM_DEBUG_INFO_HAS_CORTEX_M_SECURITY_EXT_INDEX)
T684C 000:104.983   Value=0x00000000
T684C 000:104.987 - 0.007ms returns 0
T684C 000:104.994 JLINK_HasError()
T684C 000:105.015 JLINK_SetResetType(JLINKARM_CM3_RESET_TYPE_NORMAL)
T684C 000:105.018 - 0.003ms returns JLINKARM_CM3_RESET_TYPE_NORMAL
T684C 000:105.022 JLINK_Reset()
T684C 000:105.031   JLINK_GetResetTypeDesc
T684C 000:105.034   - 0.003ms 
T684C 000:105.045   Reset type: NORMAL (https://kb.segger.com/J-Link_Reset_Strategies)
T684C 000:105.051   CPU is running
T684C 000:105.056   CPU_WriteMem(4 bytes @ 0xE000EDF0)
T684C 000:105.490   CPU is running
T684C 000:105.521   CPU_WriteMem(4 bytes @ 0xE000EDFC)
T684C 000:105.910   Reset: Halt core after reset via DEMCR.VC_CORERESET.
T684C 000:106.465   Reset: Reset device via AIRCR.SYSRESETREQ.
T684C 000:106.471   CPU is running
T684C 000:106.477   CPU_WriteMem(4 bytes @ 0xE000ED0C)
T684C 000:159.255   CPU_ReadMem(4 bytes @ 0xE000EDF0)
T684C 000:159.719   CPU_ReadMem(4 bytes @ 0xE000EDF0)
T684C 000:162.842   CPU_WriteMem(4 bytes @ 0xE000EDFC)
T684C 000:169.513   CPU_ReadMem(4 bytes @ 0xE000EDF0)
T684C 000:172.720   CPU_WriteMem(4 bytes @ 0xE0002000)
T684C 000:173.129   CPU_ReadMem(4 bytes @ 0xE000EDFC)
T684C 000:173.455   CPU_ReadMem(4 bytes @ 0xE0001000)
T684C 000:173.792 - 68.769ms 
T684C 000:173.882 JLINK_HasError()
T684C 000:173.898 JLINK_ReadReg(R15 (PC))
T684C 000:173.908 - 0.015ms returns 0x0800027C
T684C 000:173.916 JLINK_ReadReg(XPSR)
T684C 000:173.923 - 0.006ms returns 0x01000000
T684C 000:173.932 JLINK_Halt()
T684C 000:173.938 - 0.006ms returns 0x00
T684C 000:173.947 JLINK_ReadMemU32(0xE000EDF0, 0x1 Items)
T684C 000:173.959   CPU_ReadMem(4 bytes @ 0xE000EDF0)
T684C 000:174.277   Data:  03 00 03 00
T684C 000:174.288   Debug reg: DHCSR
T684C 000:174.298 - 0.350ms returns 1 (0x1)
T684C 000:174.308 JLINK_WriteU32(0xE000EDF0, 0xA05F0003)
T684C 000:174.316   Debug reg: DHCSR
T684C 000:174.700   CPU_WriteMem(4 bytes @ 0xE000EDF0)
T684C 000:175.116 - 0.808ms returns 0 (0x00000000)
T684C 000:175.126 JLINK_WriteU32(0xE000EDFC, 0x01000000)
T684C 000:175.133   Debug reg: DEMCR
T684C 000:175.144   CPU_WriteMem(4 bytes @ 0xE000EDFC)
T684C 000:175.454 - 0.327ms returns 0 (0x00000000)
T684C 000:175.495 JLINK_GetHWStatus(...)
T684C 000:175.713 - 0.217ms returns 0
T684C 000:175.739 JLINK_GetNumBPUnits(Type = 0xFFFFFF00)
T684C 000:175.745 - 0.006ms returns 0x06
T684C 000:175.753 JLINK_GetNumBPUnits(Type = 0xF0)
T684C 000:175.759 - 0.006ms returns 0x2000
T684C 000:175.767 JLINK_GetNumWPUnits()
T684C 000:175.773 - 0.006ms returns 4
T684C 000:175.792 JLINK_GetSpeed()
T684C 000:175.798 - 0.005ms returns 4000
T684C 000:175.812 JLINK_ReadMemU32(0xE000E004, 0x1 Items)
T684C 000:175.820   CPU_ReadMem(4 bytes @ 0xE000E004)
T684C 000:176.132   Data:  02 00 00 00
T684C 000:176.140 - 0.328ms returns 1 (0x1)
T684C 000:176.148 JLINK_ReadMemU32(0xE000E004, 0x1 Items)
T684C 000:176.155   CPU_ReadMem(4 bytes @ 0xE000E004)
T684C 000:176.451   Data:  02 00 00 00
T684C 000:176.459 - 0.311ms returns 1 (0x1)
T684C 000:176.468 JLINK_WriteMemEx(0xE0001000, 0x0000001C Bytes, Flags = 0x02000004)
T684C 000:176.474   Data:  01 00 00 00 00 00 00 00 00 00 00 00 00 00 00 00 ...
T684C 000:176.490   CPU_WriteMem(28 bytes @ 0xE0001000)
T684C 000:177.066 - 0.598ms returns 0x1C
T684C 000:177.075 JLINK_HasError()
T684C 000:177.083 JLINK_ReadReg(R15 (PC))
T684C 000:177.089 - 0.005ms returns 0x0800027C
T684C 000:177.095 JLINK_ReadReg(XPSR)
T684C 000:177.100 - 0.005ms returns 0x01000000
T684C 000:179.251 JLINK_ReadMemEx(0xE0001004, 0x4 Bytes, Flags = 0x02000000)
T684C 000:179.262   Data:  00 00 00 00
T684C 000:179.267   Debug reg: DWT_CYCCNT
T684C 000:179.272 - 0.021ms returns 4 (0x4)
T684C 000:253.544 JLINK_HasError()
T684C 000:253.569 JLINK_SetResetType(JLINKARM_CM3_RESET_TYPE_NORMAL)
T684C 000:253.574 - 0.004ms returns JLINKARM_CM3_RESET_TYPE_NORMAL
T684C 000:253.578 JLINK_Reset()
T684C 000:253.589   JLINK_GetResetTypeDesc
T684C 000:253.598   - 0.009ms 
T684C 000:253.612   Reset type: NORMAL (https://kb.segger.com/J-Link_Reset_Strategies)
T684C 000:253.618   CPU_WriteMem(4 bytes @ 0xE000EDF0)
T684C 000:254.045   CPU_WriteMem(4 bytes @ 0xE000EDFC)
T684C 000:254.489   Reset: Halt core after reset via DEMCR.VC_CORERESET.
T684C 000:255.005   Reset: Reset device via AIRCR.SYSRESETREQ.
T684C 000:255.010   CPU_WriteMem(4 bytes @ 0xE000ED0C)
T684C 000:309.925   CPU_ReadMem(4 bytes @ 0xE000EDF0)
T684C 000:310.747   CPU_ReadMem(4 bytes @ 0xE000EDF0)
T684C 000:311.269   CPU_WriteMem(4 bytes @ 0xE000EDFC)
T684C 000:317.607   CPU_ReadMem(4 bytes @ 0xE000EDF0)
T684C 000:320.911   CPU_WriteMem(4 bytes @ 0xE0002000)
T684C 000:321.296   CPU_ReadMem(4 bytes @ 0xE000EDFC)
T684C 000:321.727   CPU_ReadMem(4 bytes @ 0xE0001000)
T684C 000:322.099 - 68.520ms 
T684C 000:322.204 JLINK_HasError()
T684C 000:322.218 JLINK_ReadReg(R15 (PC))
T684C 000:322.231 - 0.013ms returns 0x0800027C
T684C 000:322.241 JLINK_ReadReg(XPSR)
T684C 000:322.249 - 0.008ms returns 0x01000000
T684C 000:322.764 JLINK_ReadMemEx(0x0800027C, 0x3C Bytes, Flags = 0x02000000)
T684C 000:322.785   CPU_ReadMem(128 bytes @ 0x08000240)
T684C 000:323.920    -- Updating C cache (128 bytes @ 0x08000240)
T684C 000:323.972    -- Read from C cache (60 bytes @ 0x0800027C)
T684C 000:323.998   Data:  09 48 80 47 09 48 00 47 FE E7 FE E7 FE E7 FE E7 ...
T684C 000:324.050 - 1.285ms returns 60 (0x3C)
T684C 000:324.073 JLINK_ReadMemEx(0x0800027C, 0x2 Bytes, Flags = 0x02000000)
T684C 000:324.088    -- Read from C cache (2 bytes @ 0x0800027C)
T684C 000:324.103   Data:  09 48
T684C 000:324.116 - 0.043ms returns 2 (0x2)
T684C 000:324.237 JLINK_ReadMemEx(0x0800027E, 0x2 Bytes, Flags = 0x02000000)
T684C 000:324.247    -- Read from C cache (2 bytes @ 0x0800027E)
T684C 000:324.260   Data:  80 47
T684C 000:324.272 - 0.035ms returns 2 (0x2)
T684C 000:324.300 JLINK_ReadMemEx(0x0800027E, 0x2 Bytes, Flags = 0x02000000)
T684C 000:324.309    -- Read from C cache (2 bytes @ 0x0800027E)
T684C 000:324.321   Data:  80 47
T684C 000:324.332 - 0.032ms returns 2 (0x2)
T684C 000:324.343 JLINK_ReadMemEx(0x08000280, 0x3C Bytes, Flags = 0x02000000)
T684C 000:324.352    -- Read from C cache (60 bytes @ 0x08000280)
T684C 000:324.366   Data:  09 48 00 47 FE E7 FE E7 FE E7 FE E7 FE E7 FE E7 ...
T684C 000:324.377 - 0.034ms returns 60 (0x3C)
T684C 000:324.388 JLINK_ReadMemEx(0x08000280, 0x2 Bytes, Flags = 0x02000000)
T684C 000:324.397    -- Read from C cache (2 bytes @ 0x08000280)
T684C 000:324.409   Data:  09 48
T684C 000:324.421 - 0.033ms returns 2 (0x2)
T684C 001:831.745 JLINK_HasError()
T684C 001:831.760 JLINK_ReadReg(R0)
T684C 001:832.162 - 0.401ms returns 0x00000000
T684C 001:832.167 JLINK_ReadReg(R1)
T684C 001:832.170 - 0.003ms returns 0x00000000
T684C 001:832.174 JLINK_ReadReg(R2)
T684C 001:832.177 - 0.003ms returns 0x00000000
T684C 001:832.181 JLINK_ReadReg(R3)
T684C 001:832.184 - 0.003ms returns 0x00000000
T684C 001:832.188 JLINK_ReadReg(R4)
T684C 001:832.191 - 0.003ms returns 0x00000000
T684C 001:832.195 JLINK_ReadReg(R5)
T684C 001:832.198 - 0.003ms returns 0x00000000
T684C 001:832.202 JLINK_ReadReg(R6)
T684C 001:832.205 - 0.003ms returns 0x00000000
T684C 001:832.209 JLINK_ReadReg(R7)
T684C 001:832.212 - 0.003ms returns 0x00000000
T684C 001:832.229 JLINK_ReadReg(R8)
T684C 001:832.233 - 0.016ms returns 0x00000000
T684C 001:832.237 JLINK_ReadReg(R9)
T684C 001:832.240 - 0.003ms returns 0x00000000
T684C 001:832.244 JLINK_ReadReg(R10)
T684C 001:832.247 - 0.003ms returns 0x00000000
T684C 001:832.250 JLINK_ReadReg(R11)
T684C 001:832.254 - 0.003ms returns 0x00000000
T684C 001:832.258 JLINK_ReadReg(R12)
T684C 001:832.261 - 0.003ms returns 0x00000000
T684C 001:832.264 JLINK_ReadReg(R13 (SP))
T684C 001:832.268 - 0.003ms returns 0x20006138
T684C 001:832.272 JLINK_ReadReg(R14)
T684C 001:832.275 - 0.003ms returns 0xFFFFFFFF
T684C 001:832.279 JLINK_ReadReg(R15 (PC))
T684C 001:832.282 - 0.003ms returns 0x0800027C
T684C 001:832.286 JLINK_ReadReg(XPSR)
T684C 001:832.327 - 0.041ms returns 0x01000000
T684C 001:832.332 JLINK_ReadReg(MSP)
T684C 001:832.336 - 0.003ms returns 0x20006138
T684C 001:832.344 JLINK_ReadReg(PSP)
T684C 001:832.347 - 0.003ms returns 0x00000000
T684C 001:832.351 JLINK_ReadReg(CFBP)
T684C 001:832.354 - 0.003ms returns 0x00000000
T684C 001:832.358 JLINK_ReadReg(FPSCR)
T684C 001:836.373 - 4.014ms returns 0x00000000
T684C 001:836.387 JLINK_ReadReg(FPS0)
T684C 001:836.391 - 0.004ms returns 0x00000000
T684C 001:836.395 JLINK_ReadReg(FPS1)
T684C 001:836.398 - 0.003ms returns 0x00000000
T684C 001:836.402 JLINK_ReadReg(FPS2)
T684C 001:836.405 - 0.003ms returns 0x00000000
T684C 001:836.409 JLINK_ReadReg(FPS3)
T684C 001:836.412 - 0.003ms returns 0x00000000
T684C 001:836.416 JLINK_ReadReg(FPS4)
T684C 001:836.419 - 0.003ms returns 0x00000000
T684C 001:836.422 JLINK_ReadReg(FPS5)
T684C 001:836.426 - 0.003ms returns 0x00000000
T684C 001:836.429 JLINK_ReadReg(FPS6)
T684C 001:836.432 - 0.003ms returns 0x00000000
T684C 001:836.436 JLINK_ReadReg(FPS7)
T684C 001:836.439 - 0.003ms returns 0x00000000
T684C 001:836.443 JLINK_ReadReg(FPS8)
T684C 001:836.446 - 0.003ms returns 0x00000000
T684C 001:836.450 JLINK_ReadReg(FPS9)
T684C 001:836.453 - 0.003ms returns 0x00000000
T684C 001:836.457 JLINK_ReadReg(FPS10)
T684C 001:836.460 - 0.003ms returns 0x00000000
T684C 001:836.464 JLINK_ReadReg(FPS11)
T684C 001:836.467 - 0.003ms returns 0x00000000
T684C 001:836.471 JLINK_ReadReg(FPS12)
T684C 001:836.474 - 0.003ms returns 0x00000000
T684C 001:836.478 JLINK_ReadReg(FPS13)
T684C 001:836.481 - 0.003ms returns 0x00000000
T684C 001:836.485 JLINK_ReadReg(FPS14)
T684C 001:836.488 - 0.003ms returns 0x00000000
T684C 001:836.492 JLINK_ReadReg(FPS15)
T684C 001:836.495 - 0.003ms returns 0x00000000
T684C 001:836.498 JLINK_ReadReg(FPS16)
T684C 001:836.501 - 0.003ms returns 0x00000000
T684C 001:836.505 JLINK_ReadReg(FPS17)
T684C 001:836.508 - 0.003ms returns 0x00000000
T684C 001:836.512 JLINK_ReadReg(FPS18)
T684C 001:836.515 - 0.003ms returns 0x00000000
T684C 001:836.519 JLINK_ReadReg(FPS19)
T684C 001:836.522 - 0.003ms returns 0x00000000
T684C 001:836.526 JLINK_ReadReg(FPS20)
T684C 001:836.529 - 0.003ms returns 0x00000000
T684C 001:836.532 JLINK_ReadReg(FPS21)
T684C 001:836.535 - 0.003ms returns 0x00000000
T684C 001:836.539 JLINK_ReadReg(FPS22)
T684C 001:836.542 - 0.003ms returns 0x00000000
T684C 001:836.546 JLINK_ReadReg(FPS23)
T684C 001:836.549 - 0.003ms returns 0x00000000
T684C 001:836.553 JLINK_ReadReg(FPS24)
T684C 001:836.556 - 0.003ms returns 0x00000000
T684C 001:836.560 JLINK_ReadReg(FPS25)
T684C 001:836.563 - 0.003ms returns 0x00000000
T684C 001:836.567 JLINK_ReadReg(FPS26)
T684C 001:836.570 - 0.003ms returns 0x00000000
T684C 001:836.573 JLINK_ReadReg(FPS27)
T684C 001:836.576 - 0.003ms returns 0x00000000
T684C 001:836.580 JLINK_ReadReg(FPS28)
T684C 001:836.583 - 0.003ms returns 0x00000000
T684C 001:836.587 JLINK_ReadReg(FPS29)
T684C 001:836.590 - 0.003ms returns 0x00000000
T684C 001:836.594 JLINK_ReadReg(FPS30)
T684C 001:836.597 - 0.003ms returns 0x00000000
T684C 001:836.601 JLINK_ReadReg(FPS31)
T684C 001:836.604 - 0.003ms returns 0x00000000
T684C 001:899.475 JLINK_ReadMemEx(0x200001F0, 0x1 Bytes, Flags = 0x02000000)
T684C 001:899.506   CPU_ReadMem(64 bytes @ 0x200001C0)
T684C 001:900.272    -- Updating C cache (64 bytes @ 0x200001C0)
T684C 001:900.307    -- Read from C cache (1 bytes @ 0x200001F0)
T684C 001:900.312   Data:  00
T684C 001:900.317 - 0.842ms returns 1 (0x1)
T684C 001:900.385 JLINK_ReadMemEx(0x200001F0, 0x1 Bytes, Flags = 0x02000000)
T684C 001:900.389    -- Read from C cache (1 bytes @ 0x200001F0)
T684C 001:900.394   Data:  00
T684C 001:900.398 - 0.013ms returns 1 (0x1)
T684C 001:900.410 JLINK_ReadMemEx(0x200001F0, 0x1 Bytes, Flags = 0x02000000)
T684C 001:900.413    -- Read from C cache (1 bytes @ 0x200001F0)
T684C 001:900.417   Data:  00
T684C 001:900.422 - 0.011ms returns 1 (0x1)
T684C 001:911.062 JLINK_ReadMemEx(0x20000180, 0x4 Bytes, Flags = 0x02000000)
T684C 001:911.085   CPU_ReadMem(64 bytes @ 0x20000180)
T684C 001:911.846    -- Updating C cache (64 bytes @ 0x20000180)
T684C 001:911.921    -- Read from C cache (4 bytes @ 0x20000180)
T684C 001:911.953   Data:  AE 47 61 3E
T684C 001:911.985 - 0.920ms returns 4 (0x4)
T684C 001:912.011 JLINK_ReadMemEx(0x20000180, 0x4 Bytes, Flags = 0x02000000)
T684C 001:912.016    -- Read from C cache (4 bytes @ 0x20000180)
T684C 001:912.020   Data:  AE 47 61 3E
T684C 001:912.024 - 0.013ms returns 4 (0x4)
T684C 001:912.035 JLINK_ReadMemEx(0x20000180, 0x4 Bytes, Flags = 0x02000000)
T684C 001:912.039    -- Read from C cache (4 bytes @ 0x20000180)
T684C 001:912.043   Data:  AE 47 61 3E
T684C 001:912.047 - 0.011ms returns 4 (0x4)
T684C 001:920.828 JLINK_ReadMemEx(0x20000180, 0x4 Bytes, Flags = 0x02000000)
T684C 001:920.861    -- Read from C cache (4 bytes @ 0x20000180)
T684C 001:920.866   Data:  AE 47 61 3E
T684C 001:920.872 - 0.044ms returns 4 (0x4)
T684C 001:920.901 JLINK_ReadMemEx(0x20000180, 0x4 Bytes, Flags = 0x02000000)
T684C 001:920.905    -- Read from C cache (4 bytes @ 0x20000180)
T684C 001:920.910   Data:  AE 47 61 3E
T684C 001:920.914 - 0.013ms returns 4 (0x4)
T684C 001:920.931 JLINK_ReadMemEx(0x20000180, 0x4 Bytes, Flags = 0x02000000)
T684C 001:920.935    -- Read from C cache (4 bytes @ 0x20000180)
T684C 001:920.939   Data:  AE 47 61 3E
T684C 001:920.944 - 0.013ms returns 4 (0x4)
T6410 001:963.038 JLINK_ReadMemEx(0x0800027C, 0x2 Bytes, Flags = 0x02000000)
T6410 001:963.059    -- Read from C cache (2 bytes @ 0x0800027C)
T6410 001:963.065   Data:  09 48
T6410 001:963.070 - 0.031ms returns 2 (0x2)
T6410 001:963.075 JLINK_HasError()
T6410 001:963.081 JLINK_SetBPEx(Addr = 0x080054BC, Type = 0xFFFFFFF2)
T6410 001:963.087 - 0.006ms returns 0x00000001
T6410 001:963.091 JLINK_HasError()
T6410 001:963.095 JLINK_SetBPEx(Addr = 0x08000A12, Type = 0xFFFFFFF2)
T6410 001:963.098 - 0.003ms returns 0x00000002
T6410 001:963.102 JLINK_HasError()
T6410 001:963.106 JLINK_SetBPEx(Addr = 0x08000A24, Type = 0xFFFFFFF2)
T6410 001:963.110 - 0.003ms returns 0x00000003
T6410 001:963.113 JLINK_HasError()
T6410 001:963.117 JLINK_HasError()
T6410 001:963.122 JLINK_Go()
T6410 001:963.131   CPU_WriteMem(4 bytes @ 0xE0002000)
T6410 001:963.560   CPU_WriteMem(4 bytes @ 0xE0002000)
T6410 001:963.863   CPU_WriteMem(4 bytes @ 0xE0002000)
T6410 001:964.223   CPU_ReadMem(4 bytes @ 0xE0001000)
T6410 001:964.519   CPU_WriteMem(4 bytes @ 0xE0002008)
T6410 001:964.525   CPU_WriteMem(4 bytes @ 0xE000200C)
T6410 001:964.530   CPU_WriteMem(4 bytes @ 0xE0002010)
T6410 001:964.534   CPU_WriteMem(4 bytes @ 0xE0002014)
T6410 001:964.555   CPU_WriteMem(4 bytes @ 0xE0002018)
T6410 001:964.576   CPU_WriteMem(4 bytes @ 0xE000201C)
T6410 001:965.948   CPU_WriteMem(4 bytes @ 0xE0001004)
T6410 001:971.988   Memory map 'after startup completion point' is active
T6410 001:972.002 - 8.879ms 
T6410 002:072.181 JLINK_HasError()
T6410 002:072.203 JLINK_IsHalted()
T6410 002:074.803 - 2.599ms returns TRUE
T6410 002:074.815 JLINK_HasError()
T6410 002:074.819 JLINK_Halt()
T6410 002:074.823 - 0.003ms returns 0x00
T6410 002:074.827 JLINK_IsHalted()
T6410 002:074.830 - 0.003ms returns TRUE
T6410 002:074.834 JLINK_IsHalted()
T6410 002:074.837 - 0.003ms returns TRUE
T6410 002:074.841 JLINK_IsHalted()
T6410 002:074.844 - 0.002ms returns TRUE
T6410 002:074.848 JLINK_HasError()
T6410 002:074.856 JLINK_ReadReg(R15 (PC))
T6410 002:074.862 - 0.009ms returns 0x080054BC
T6410 002:074.866 JLINK_ReadReg(XPSR)
T6410 002:074.869 - 0.003ms returns 0x21000000
T6410 002:074.876 JLINK_HasError()
T6410 002:074.880 JLINK_ClrBPEx(BPHandle = 0x00000001)
T6410 002:074.884 - 0.004ms returns 0x00
T6410 002:074.888 JLINK_HasError()
T6410 002:074.892 JLINK_ClrBPEx(BPHandle = 0x00000002)
T6410 002:074.895 - 0.003ms returns 0x00
T6410 002:074.898 JLINK_HasError()
T6410 002:074.902 JLINK_ClrBPEx(BPHandle = 0x00000003)
T6410 002:074.906 - 0.003ms returns 0x00
T6410 002:074.910 JLINK_HasError()
T6410 002:074.914 JLINK_HasError()
T6410 002:074.918 JLINK_ReadMemU32(0xE000ED30, 0x1 Items)
T6410 002:074.929   CPU_ReadMem(4 bytes @ 0xE000ED30)
T6410 002:075.230   Data:  02 00 00 00
T6410 002:075.235 - 0.317ms returns 1 (0x1)
T6410 002:075.240 JLINK_ReadMemU32(0xE0001028, 0x1 Items)
T6410 002:075.244   CPU_ReadMem(4 bytes @ 0xE0001028)
T6410 002:075.584   Data:  00 00 00 00
T6410 002:075.595   Debug reg: DWT_FUNC[0]
T6410 002:075.600 - 0.360ms returns 1 (0x1)
T6410 002:075.606 JLINK_ReadMemU32(0xE0001038, 0x1 Items)
T6410 002:075.614   CPU_ReadMem(4 bytes @ 0xE0001038)
T6410 002:075.941   Data:  00 02 00 00
T6410 002:075.946   Debug reg: DWT_FUNC[1]
T6410 002:075.951 - 0.344ms returns 1 (0x1)
T6410 002:075.955 JLINK_ReadMemU32(0xE0001048, 0x1 Items)
T6410 002:075.959   CPU_ReadMem(4 bytes @ 0xE0001048)
T6410 002:076.237   Data:  00 00 00 00
T6410 002:076.242   Debug reg: DWT_FUNC[2]
T6410 002:076.247 - 0.291ms returns 1 (0x1)
T6410 002:076.251 JLINK_ReadMemU32(0xE0001058, 0x1 Items)
T6410 002:076.255   CPU_ReadMem(4 bytes @ 0xE0001058)
T6410 002:076.586   Data:  00 00 00 00
T6410 002:076.595   Debug reg: DWT_FUNC[3]
T6410 002:076.599 - 0.347ms returns 1 (0x1)
T6410 002:076.638 JLINK_HasError()
T6410 002:076.642 JLINK_ReadReg(R0)
T6410 002:076.647 - 0.004ms returns 0x20005B38
T6410 002:076.650 JLINK_ReadReg(R1)
T6410 002:076.654 - 0.003ms returns 0x20005D38
T6410 002:076.657 JLINK_ReadReg(R2)
T6410 002:076.660 - 0.003ms returns 0x20005D38
T6410 002:076.664 JLINK_ReadReg(R3)
T6410 002:076.667 - 0.003ms returns 0x20005D38
T6410 002:076.671 JLINK_ReadReg(R4)
T6410 002:076.674 - 0.003ms returns 0x00000000
T6410 002:076.678 JLINK_ReadReg(R5)
T6410 002:076.681 - 0.003ms returns 0x20000190
T6410 002:076.684 JLINK_ReadReg(R6)
T6410 002:076.688 - 0.003ms returns 0x00000000
T6410 002:076.691 JLINK_ReadReg(R7)
T6410 002:076.694 - 0.003ms returns 0x00000000
T6410 002:076.698 JLINK_ReadReg(R8)
T6410 002:076.701 - 0.003ms returns 0x00000000
T6410 002:076.705 JLINK_ReadReg(R9)
T6410 002:076.708 - 0.003ms returns 0x00000000
T6410 002:076.712 JLINK_ReadReg(R10)
T6410 002:076.715 - 0.003ms returns 0x0800814C
T6410 002:076.719 JLINK_ReadReg(R11)
T6410 002:076.722 - 0.003ms returns 0x00000000
T6410 002:076.725 JLINK_ReadReg(R12)
T6410 002:076.728 - 0.003ms returns 0x20005B48
T6410 002:076.732 JLINK_ReadReg(R13 (SP))
T6410 002:076.736 - 0.003ms returns 0x20006138
T6410 002:076.739 JLINK_ReadReg(R14)
T6410 002:076.742 - 0.003ms returns 0x0800026B
T6410 002:076.746 JLINK_ReadReg(R15 (PC))
T6410 002:076.749 - 0.003ms returns 0x080054BC
T6410 002:076.753 JLINK_ReadReg(XPSR)
T6410 002:076.756 - 0.003ms returns 0x21000000
T6410 002:076.760 JLINK_ReadReg(MSP)
T6410 002:076.763 - 0.003ms returns 0x20006138
T6410 002:076.766 JLINK_ReadReg(PSP)
T6410 002:076.770 - 0.003ms returns 0x00000000
T6410 002:076.773 JLINK_ReadReg(CFBP)
T6410 002:076.776 - 0.003ms returns 0x04000000
T6410 002:076.780 JLINK_ReadReg(FPSCR)
T6410 002:080.820 - 4.037ms returns 0x03000000
T6410 002:080.849 JLINK_ReadReg(FPS0)
T6410 002:080.853 - 0.003ms returns 0x00000000
T6410 002:080.856 JLINK_ReadReg(FPS1)
T6410 002:080.860 - 0.003ms returns 0x00000000
T6410 002:080.864 JLINK_ReadReg(FPS2)
T6410 002:080.867 - 0.003ms returns 0x00000000
T6410 002:080.871 JLINK_ReadReg(FPS3)
T6410 002:080.874 - 0.003ms returns 0x00000000
T6410 002:080.877 JLINK_ReadReg(FPS4)
T6410 002:080.880 - 0.003ms returns 0x00000000
T6410 002:080.884 JLINK_ReadReg(FPS5)
T6410 002:080.887 - 0.003ms returns 0x00000000
T6410 002:080.891 JLINK_ReadReg(FPS6)
T6410 002:080.894 - 0.003ms returns 0x00000000
T6410 002:080.898 JLINK_ReadReg(FPS7)
T6410 002:080.901 - 0.003ms returns 0x00000000
T6410 002:080.904 JLINK_ReadReg(FPS8)
T6410 002:080.907 - 0.003ms returns 0x00000000
T6410 002:080.911 JLINK_ReadReg(FPS9)
T6410 002:080.914 - 0.003ms returns 0x00000000
T6410 002:080.918 JLINK_ReadReg(FPS10)
T6410 002:080.921 - 0.003ms returns 0x00000000
T6410 002:080.925 JLINK_ReadReg(FPS11)
T6410 002:080.928 - 0.003ms returns 0x00000000
T6410 002:080.932 JLINK_ReadReg(FPS12)
T6410 002:080.935 - 0.003ms returns 0x00000000
T6410 002:080.941 JLINK_ReadReg(FPS13)
T6410 002:080.946 - 0.004ms returns 0x00000000
T6410 002:080.950 JLINK_ReadReg(FPS14)
T6410 002:080.952 - 0.003ms returns 0x00000000
T6410 002:080.956 JLINK_ReadReg(FPS15)
T6410 002:080.959 - 0.003ms returns 0x00000000
T6410 002:080.963 JLINK_ReadReg(FPS16)
T6410 002:080.966 - 0.003ms returns 0x00000000
T6410 002:080.970 JLINK_ReadReg(FPS17)
T6410 002:080.973 - 0.002ms returns 0x00000000
T6410 002:080.976 JLINK_ReadReg(FPS18)
T6410 002:080.979 - 0.003ms returns 0x00000000
T6410 002:080.983 JLINK_ReadReg(FPS19)
T6410 002:080.986 - 0.003ms returns 0x00000000
T6410 002:080.990 JLINK_ReadReg(FPS20)
T6410 002:080.993 - 0.003ms returns 0x00000000
T6410 002:080.997 JLINK_ReadReg(FPS21)
T6410 002:081.000 - 0.003ms returns 0x00000000
T6410 002:081.003 JLINK_ReadReg(FPS22)
T6410 002:081.006 - 0.003ms returns 0x00000000
T6410 002:081.010 JLINK_ReadReg(FPS23)
T6410 002:081.013 - 0.003ms returns 0x00000000
T6410 002:081.017 JLINK_ReadReg(FPS24)
T6410 002:081.020 - 0.003ms returns 0x00000000
T6410 002:081.024 JLINK_ReadReg(FPS25)
T6410 002:081.027 - 0.003ms returns 0x00000000
T6410 002:081.030 JLINK_ReadReg(FPS26)
T6410 002:081.034 - 0.003ms returns 0x00000000
T6410 002:081.037 JLINK_ReadReg(FPS27)
T6410 002:081.040 - 0.003ms returns 0x00000000
T6410 002:081.044 JLINK_ReadReg(FPS28)
T6410 002:081.047 - 0.003ms returns 0x00000000
T6410 002:081.051 JLINK_ReadReg(FPS29)
T6410 002:081.054 - 0.003ms returns 0x00000000
T6410 002:081.057 JLINK_ReadReg(FPS30)
T6410 002:081.060 - 0.003ms returns 0x00000000
T6410 002:081.064 JLINK_ReadReg(FPS31)
T6410 002:081.067 - 0.003ms returns 0x00000000
T6410 002:081.074 JLINK_ReadMemEx(0x20005344, 0x4 Bytes, Flags = 0x02000000)
T6410 002:081.081   CPU_ReadMem(64 bytes @ 0x20005340)
T6410 002:081.712    -- Updating C cache (64 bytes @ 0x20005340)
T6410 002:081.722    -- Read from C cache (4 bytes @ 0x20005344)
T6410 002:081.727   Data:  00 00 00 00
T6410 002:081.732 - 0.657ms returns 4 (0x4)
T684C 002:089.167 JLINK_ReadMemEx(0x200001F0, 0x1 Bytes, Flags = 0x02000000)
T684C 002:089.185   CPU_ReadMem(64 bytes @ 0x200001C0)
T684C 002:089.915    -- Updating C cache (64 bytes @ 0x200001C0)
T684C 002:089.926    -- Read from C cache (1 bytes @ 0x200001F0)
T684C 002:089.931   Data:  00
T684C 002:089.936 - 0.768ms returns 1 (0x1)
T684C 002:089.959 JLINK_ReadMemEx(0x20000180, 0x4 Bytes, Flags = 0x02000000)
T684C 002:089.965   CPU_ReadMem(64 bytes @ 0x20000180)
T684C 002:090.702    -- Updating C cache (64 bytes @ 0x20000180)
T684C 002:090.714    -- Read from C cache (4 bytes @ 0x20000180)
T684C 002:090.719   Data:  AE 47 61 3E
T684C 002:090.724 - 0.765ms returns 4 (0x4)
T684C 002:090.754 JLINK_ReadMemEx(0x20000180, 0x4 Bytes, Flags = 0x02000000)
T684C 002:090.760    -- Read from C cache (4 bytes @ 0x20000180)
T684C 002:090.764   Data:  AE 47 61 3E
T684C 002:090.770 - 0.015ms returns 4 (0x4)
T6410 009:016.572 JLINK_ReadMemEx(0x080054BC, 0x2 Bytes, Flags = 0x02000000)
T6410 009:016.621   CPU_ReadMem(64 bytes @ 0x08005480)
T6410 009:017.515    -- Updating C cache (64 bytes @ 0x08005480)
T6410 009:017.546    -- Read from C cache (2 bytes @ 0x080054BC)
T6410 009:017.558   Data:  FC F7
T6410 009:017.568 - 0.996ms returns 2 (0x2)
T6410 009:017.582 JLINK_HasError()
T6410 009:017.591 JLINK_SetBPEx(Addr = 0x08000A12, Type = 0xFFFFFFF2)
T6410 009:017.602 - 0.010ms returns 0x00000004
T6410 009:017.610 JLINK_HasError()
T6410 009:017.619 JLINK_SetBPEx(Addr = 0x08000A24, Type = 0xFFFFFFF2)
T6410 009:017.626 - 0.006ms returns 0x00000005
T6410 009:017.634 JLINK_HasError()
T6410 009:017.641 JLINK_HasError()
T6410 009:017.650 JLINK_Go()
T6410 009:018.142   CPU_WriteMem(4 bytes @ 0xE0002000)
T6410 009:018.496   CPU_WriteMem(4 bytes @ 0xE0002000)
T6410 009:018.902   CPU_ReadMem(4 bytes @ 0xE0001000)
T6410 009:019.231   CPU_WriteMem(4 bytes @ 0xE0002008)
T6410 009:019.248   CPU_WriteMem(4 bytes @ 0xE000200C)
T6410 009:019.254   CPU_WriteMem(4 bytes @ 0xE0002010)
T6410 009:020.922 - 3.272ms 
T6410 009:121.357 JLINK_HasError()
T6410 009:121.434 JLINK_IsHalted()
T6410 009:121.806 - 0.371ms returns FALSE
T6410 009:222.386 JLINK_HasError()
T6410 009:222.410 JLINK_IsHalted()
T6410 009:222.827 - 0.417ms returns FALSE
T6410 009:323.494 JLINK_HasError()
T6410 009:323.591 JLINK_IsHalted()
T6410 009:324.284 - 0.693ms returns FALSE
T6410 009:424.413 JLINK_HasError()
T6410 009:424.467 JLINK_IsHalted()
T6410 009:425.093 - 0.623ms returns FALSE
T6410 009:526.113 JLINK_HasError()
T6410 009:526.148 JLINK_IsHalted()
T6410 009:526.494 - 0.345ms returns FALSE
T6410 009:626.566 JLINK_HasError()
T6410 009:626.630 JLINK_HasError()
T6410 009:626.643 JLINK_ReadMemU32(0xE0001004, 0x1 Items)
T6410 009:626.674   CPU_ReadMem(4 bytes @ 0xE0001004)
T6410 009:627.207   Data:  E7 64 15 06
T6410 009:627.260   Debug reg: DWT_CYCCNT
T6410 009:627.277 - 0.633ms returns 1 (0x1)
T684C 009:636.274 JLINK_ReadMemEx(0x200001F0, 0x1 Bytes, Flags = 0x02000000)
T684C 009:636.290   CPU_ReadMem(1 bytes @ 0x200001F0)
T684C 009:636.662   Data:  00
T684C 009:636.671 - 0.398ms returns 1 (0x1)
T684C 009:636.691 JLINK_ReadMemEx(0x20000180, 0x4 Bytes, Flags = 0x02000000)
T684C 009:636.697   CPU_ReadMem(4 bytes @ 0x20000180)
T684C 009:637.102   Data:  AE 47 61 3E
T684C 009:637.107 - 0.416ms returns 4 (0x4)
T684C 009:637.124 JLINK_ReadMemEx(0x20000180, 0x4 Bytes, Flags = 0x02000000)
T684C 009:637.129   CPU_ReadMem(4 bytes @ 0x20000180)
T684C 009:637.580   Data:  AE 47 61 3E
T684C 009:637.591 - 0.467ms returns 4 (0x4)
T6410 009:637.634 JLINK_IsHalted()
T6410 009:638.102 - 0.467ms returns FALSE
T6410 009:738.722 JLINK_HasError()
T6410 009:738.744 JLINK_IsHalted()
T6410 009:739.101 - 0.356ms returns FALSE
T6410 009:839.129 JLINK_HasError()
T6410 009:839.198 JLINK_IsHalted()
T6410 009:839.510 - 0.312ms returns FALSE
T6410 009:940.470 JLINK_HasError()
T6410 009:940.488 JLINK_IsHalted()
T6410 009:940.847 - 0.358ms returns FALSE
T6410 010:041.662 JLINK_HasError()
T6410 010:041.690 JLINK_IsHalted()
T6410 010:042.106 - 0.415ms returns FALSE
T6410 010:142.455 JLINK_HasError()
T6410 010:142.522 JLINK_HasError()
T6410 010:142.542 JLINK_ReadMemU32(0xE0001004, 0x1 Items)
T6410 010:142.579   Data:  E7 64 15 06
T6410 010:142.603   Debug reg: DWT_CYCCNT
T6410 010:142.624 - 0.082ms returns 1 (0x1)
T684C 010:150.453 JLINK_ReadMemEx(0x200001F0, 0x1 Bytes, Flags = 0x02000000)
T684C 010:150.469   CPU_ReadMem(1 bytes @ 0x200001F0)
T684C 010:150.830   Data:  00
T684C 010:150.841 - 0.387ms returns 1 (0x1)
T684C 010:150.862 JLINK_ReadMemEx(0x20000180, 0x4 Bytes, Flags = 0x02000000)
T684C 010:150.869   CPU_ReadMem(4 bytes @ 0x20000180)
T684C 010:151.246   Data:  AE 47 61 3E
T684C 010:151.252 - 0.389ms returns 4 (0x4)
T684C 010:151.274 JLINK_ReadMemEx(0x20000180, 0x4 Bytes, Flags = 0x02000000)
T684C 010:151.278   CPU_ReadMem(4 bytes @ 0x20000180)
T684C 010:151.761   Data:  AE 47 61 3E
T684C 010:151.773 - 0.498ms returns 4 (0x4)
T6410 010:151.815 JLINK_IsHalted()
T6410 010:152.096 - 0.281ms returns FALSE
T6410 010:253.038 JLINK_HasError()
T6410 010:253.086 JLINK_IsHalted()
T6410 010:253.528 - 0.441ms returns FALSE
T6410 010:354.376 JLINK_HasError()
T6410 010:354.395 JLINK_IsHalted()
T6410 010:354.762 - 0.366ms returns FALSE
T6410 010:455.900 JLINK_HasError()
T6410 010:455.921 JLINK_IsHalted()
T6410 010:456.235 - 0.314ms returns FALSE
T6410 010:556.308 JLINK_HasError()
T6410 010:556.396 JLINK_IsHalted()
T6410 010:556.773 - 0.377ms returns FALSE
T6410 010:657.667 JLINK_HasError()
T6410 010:657.689 JLINK_HasError()
T6410 010:657.694 JLINK_ReadMemU32(0xE0001004, 0x1 Items)
T6410 010:657.706   Data:  E7 64 15 06
T6410 010:657.710   Debug reg: DWT_CYCCNT
T6410 010:657.715 - 0.022ms returns 1 (0x1)
T684C 010:663.968 JLINK_ReadMemEx(0x200001F0, 0x1 Bytes, Flags = 0x02000000)
T684C 010:663.988   CPU_ReadMem(1 bytes @ 0x200001F0)
T684C 010:664.296   Data:  00
T684C 010:664.302 - 0.333ms returns 1 (0x1)
T684C 010:664.321 JLINK_ReadMemEx(0x20000180, 0x4 Bytes, Flags = 0x02000000)
T684C 010:664.325   CPU_ReadMem(4 bytes @ 0x20000180)
T684C 010:664.722   Data:  AE 47 61 3E
T684C 010:664.740 - 0.419ms returns 4 (0x4)
T684C 010:664.780 JLINK_ReadMemEx(0x20000180, 0x4 Bytes, Flags = 0x02000000)
T684C 010:664.788   CPU_ReadMem(4 bytes @ 0x20000180)
T684C 010:665.102   Data:  AE 47 61 3E
T684C 010:665.112 - 0.332ms returns 4 (0x4)
T6410 010:665.194 JLINK_IsHalted()
T6410 010:665.554 - 0.361ms returns FALSE
T6410 010:766.204 JLINK_HasError()
T6410 010:766.289 JLINK_IsHalted()
T6410 010:766.847 - 0.557ms returns FALSE
T6410 010:867.505 JLINK_HasError()
T6410 010:867.534 JLINK_IsHalted()
T6410 010:868.062 - 0.526ms returns FALSE
T6410 010:968.614 JLINK_HasError()
T6410 010:968.637 JLINK_IsHalted()
T6410 010:969.042 - 0.404ms returns FALSE
T6410 011:069.232 JLINK_HasError()
T6410 011:069.253 JLINK_IsHalted()
T6410 011:069.603 - 0.350ms returns FALSE
T6410 011:169.902 JLINK_HasError()
T6410 011:169.936 JLINK_IsHalted()
T6410 011:170.430 - 0.492ms returns FALSE
T6410 011:270.741 JLINK_HasError()
T6410 011:270.760 JLINK_HasError()
T6410 011:270.765 JLINK_ReadMemU32(0xE0001004, 0x1 Items)
T6410 011:270.777   Data:  E7 64 15 06
T6410 011:270.782   Debug reg: DWT_CYCCNT
T6410 011:270.786 - 0.022ms returns 1 (0x1)
T684C 011:288.915 JLINK_ReadMemEx(0x200001F0, 0x1 Bytes, Flags = 0x02000000)
T684C 011:288.943   CPU_ReadMem(1 bytes @ 0x200001F0)
T684C 011:289.259   Data:  00
T684C 011:289.265 - 0.350ms returns 1 (0x1)
T684C 011:289.286 JLINK_ReadMemEx(0x20000180, 0x4 Bytes, Flags = 0x02000000)
T684C 011:289.290   CPU_ReadMem(4 bytes @ 0x20000180)
T684C 011:289.576   Data:  AE 47 61 3E
T684C 011:289.589 - 0.303ms returns 4 (0x4)
T684C 011:289.622 JLINK_ReadMemEx(0x20000180, 0x4 Bytes, Flags = 0x02000000)
T684C 011:289.631   CPU_ReadMem(4 bytes @ 0x20000180)
T684C 011:289.976   Data:  AE 47 61 3E
T684C 011:289.982 - 0.360ms returns 4 (0x4)
T6410 011:290.031 JLINK_IsHalted()
T6410 011:290.350 - 0.318ms returns FALSE
T6410 011:391.405 JLINK_HasError()
T6410 011:391.485 JLINK_IsHalted()
T6410 011:392.014 - 0.529ms returns FALSE
T6410 011:492.445 JLINK_HasError()
T6410 011:492.474 JLINK_IsHalted()
T6410 011:492.845 - 0.370ms returns FALSE
T6410 011:593.319 JLINK_HasError()
T6410 011:593.338 JLINK_IsHalted()
T6410 011:593.694 - 0.356ms returns FALSE
T6410 011:694.379 JLINK_HasError()
T6410 011:694.406 JLINK_IsHalted()
T6410 011:694.874 - 0.468ms returns FALSE
T6410 011:795.346 JLINK_HasError()
T6410 011:795.370 JLINK_HasError()
T6410 011:795.375 JLINK_ReadMemU32(0xE0001004, 0x1 Items)
T6410 011:795.391   Data:  E7 64 15 06
T6410 011:795.396   Debug reg: DWT_CYCCNT
T6410 011:795.401 - 0.026ms returns 1 (0x1)
T684C 011:801.449 JLINK_ReadMemEx(0x200001F0, 0x1 Bytes, Flags = 0x02000000)
T684C 011:801.475   CPU_ReadMem(1 bytes @ 0x200001F0)
T684C 011:801.848   Data:  00
T684C 011:801.854 - 0.405ms returns 1 (0x1)
T684C 011:801.871 JLINK_ReadMemEx(0x20000180, 0x4 Bytes, Flags = 0x02000000)
T684C 011:801.876   CPU_ReadMem(4 bytes @ 0x20000180)
T684C 011:802.222   Data:  AE 47 61 3E
T684C 011:802.226 - 0.355ms returns 4 (0x4)
T684C 011:802.243 JLINK_ReadMemEx(0x20000180, 0x4 Bytes, Flags = 0x02000000)
T684C 011:802.246   CPU_ReadMem(4 bytes @ 0x20000180)
T684C 011:802.569   Data:  AE 47 61 3E
T684C 011:802.574 - 0.330ms returns 4 (0x4)
T6410 011:802.626 JLINK_IsHalted()
T6410 011:802.986 - 0.360ms returns FALSE
T6410 011:903.389 JLINK_HasError()
T6410 011:903.414 JLINK_IsHalted()
T6410 011:903.766 - 0.351ms returns FALSE
T6410 012:003.804 JLINK_HasError()
T6410 012:003.826 JLINK_IsHalted()
T6410 012:004.206 - 0.380ms returns FALSE
T6410 012:105.050 JLINK_HasError()
T6410 012:105.088 JLINK_IsHalted()
T6410 012:105.442 - 0.353ms returns FALSE
T6410 012:205.519 JLINK_HasError()
T6410 012:205.582 JLINK_IsHalted()
T6410 012:205.958 - 0.376ms returns FALSE
T6410 012:306.408 JLINK_HasError()
T6410 012:306.433 JLINK_HasError()
T6410 012:306.438 JLINK_ReadMemU32(0xE0001004, 0x1 Items)
T6410 012:306.450   Data:  E7 64 15 06
T6410 012:306.455   Debug reg: DWT_CYCCNT
T6410 012:306.460 - 0.022ms returns 1 (0x1)
T684C 012:312.010 JLINK_ReadMemEx(0x200001F0, 0x1 Bytes, Flags = 0x02000000)
T684C 012:312.038   CPU_ReadMem(1 bytes @ 0x200001F0)
T684C 012:312.447   Data:  00
T684C 012:312.462 - 0.449ms returns 1 (0x1)
T684C 012:312.486 JLINK_ReadMemEx(0x20000180, 0x4 Bytes, Flags = 0x02000000)
T684C 012:312.493   CPU_ReadMem(4 bytes @ 0x20000180)
T684C 012:312.841   Data:  AE 47 61 3E
T684C 012:312.846 - 0.360ms returns 4 (0x4)
T684C 012:312.863 JLINK_ReadMemEx(0x20000180, 0x4 Bytes, Flags = 0x02000000)
T684C 012:312.867   CPU_ReadMem(4 bytes @ 0x20000180)
T684C 012:313.146   Data:  AE 47 61 3E
T684C 012:313.158 - 0.294ms returns 4 (0x4)
T6410 012:313.214 JLINK_IsHalted()
T6410 012:313.508 - 0.293ms returns FALSE
T6410 012:413.599 JLINK_HasError()
T6410 012:413.626 JLINK_IsHalted()
T6410 012:416.239 - 2.613ms returns TRUE
T6410 012:416.251 JLINK_HasError()
T6410 012:416.255 JLINK_Halt()
T6410 012:416.258 - 0.003ms returns 0x00
T6410 012:416.262 JLINK_IsHalted()
T6410 012:416.266 - 0.003ms returns TRUE
T6410 012:416.270 JLINK_IsHalted()
T6410 012:416.273 - 0.003ms returns TRUE
T6410 012:416.276 JLINK_IsHalted()
T6410 012:416.279 - 0.002ms returns TRUE
T6410 012:416.284 JLINK_HasError()
T6410 012:416.288 JLINK_ReadReg(R15 (PC))
T6410 012:416.294 - 0.005ms returns 0x08000A12
T6410 012:416.298 JLINK_ReadReg(XPSR)
T6410 012:416.301 - 0.003ms returns 0x01000000
T6410 012:416.306 JLINK_HasError()
T6410 012:416.310 JLINK_ClrBPEx(BPHandle = 0x00000004)
T6410 012:416.314 - 0.004ms returns 0x00
T6410 012:416.318 JLINK_HasError()
T6410 012:416.322 JLINK_ClrBPEx(BPHandle = 0x00000005)
T6410 012:416.325 - 0.003ms returns 0x00
T6410 012:416.329 JLINK_HasError()
T6410 012:416.333 JLINK_HasError()
T6410 012:416.337 JLINK_ReadMemU32(0xE000ED30, 0x1 Items)
T6410 012:416.345   CPU_ReadMem(4 bytes @ 0xE000ED30)
T6410 012:416.697   Data:  02 00 00 00
T6410 012:416.706 - 0.369ms returns 1 (0x1)
T6410 012:416.712 JLINK_ReadMemU32(0xE0001028, 0x1 Items)
T6410 012:416.718   CPU_ReadMem(4 bytes @ 0xE0001028)
T6410 012:417.114   Data:  00 00 00 00
T6410 012:417.118   Debug reg: DWT_FUNC[0]
T6410 012:417.122 - 0.410ms returns 1 (0x1)
T6410 012:417.127 JLINK_ReadMemU32(0xE0001038, 0x1 Items)
T6410 012:417.131   CPU_ReadMem(4 bytes @ 0xE0001038)
T6410 012:417.486   Data:  00 02 00 00
T6410 012:417.498   Debug reg: DWT_FUNC[1]
T6410 012:417.502 - 0.375ms returns 1 (0x1)
T6410 012:417.508 JLINK_ReadMemU32(0xE0001048, 0x1 Items)
T6410 012:417.514   CPU_ReadMem(4 bytes @ 0xE0001048)
T6410 012:417.861   Data:  00 00 00 00
T6410 012:417.866   Debug reg: DWT_FUNC[2]
T6410 012:417.870 - 0.361ms returns 1 (0x1)
T6410 012:417.874 JLINK_ReadMemU32(0xE0001058, 0x1 Items)
T6410 012:417.878   CPU_ReadMem(4 bytes @ 0xE0001058)
T6410 012:418.222   Data:  00 00 00 00
T6410 012:418.227   Debug reg: DWT_FUNC[3]
T6410 012:418.232 - 0.358ms returns 1 (0x1)
T6410 012:418.265 JLINK_HasError()
T6410 012:418.269 JLINK_ReadReg(R0)
T6410 012:418.273 - 0.003ms returns 0x00000001
T6410 012:418.277 JLINK_ReadReg(R1)
T6410 012:418.280 - 0.003ms returns 0x00000001
T6410 012:418.283 JLINK_ReadReg(R2)
T6410 012:418.286 - 0.003ms returns 0x00000000
T6410 012:418.290 JLINK_ReadReg(R3)
T6410 012:418.294 - 0.003ms returns 0x00000001
T6410 012:418.298 JLINK_ReadReg(R4)
T6410 012:418.301 - 0.003ms returns 0x20001710
T6410 012:418.304 JLINK_ReadReg(R5)
T6410 012:418.307 - 0.003ms returns 0x40020400
T6410 012:418.311 JLINK_ReadReg(R6)
T6410 012:418.314 - 0.003ms returns 0x200001F0
T6410 012:418.318 JLINK_ReadReg(R7)
T6410 012:418.321 - 0.003ms returns 0x20000D48
T6410 012:418.325 JLINK_ReadReg(R8)
T6410 012:418.328 - 0.003ms returns 0x40020800
T6410 012:418.331 JLINK_ReadReg(R9)
T6410 012:418.334 - 0.002ms returns 0x20000D4A
T6410 012:418.338 JLINK_ReadReg(R10)
T6410 012:418.342 - 0.003ms returns 0x20000D49
T6410 012:418.345 JLINK_ReadReg(R11)
T6410 012:418.348 - 0.003ms returns 0x20002EF4
T6410 012:418.352 JLINK_ReadReg(R12)
T6410 012:418.355 - 0.003ms returns 0x40006400
T6410 012:418.358 JLINK_ReadReg(R13 (SP))
T6410 012:418.362 - 0.003ms returns 0x20002EF0
T6410 012:418.376 JLINK_ReadReg(R14)
T6410 012:418.378 - 0.002ms returns 0x080009E1
T6410 012:418.384 JLINK_ReadReg(R15 (PC))
T6410 012:418.393 - 0.008ms returns 0x08000A12
T6410 012:418.397 JLINK_ReadReg(XPSR)
T6410 012:418.400 - 0.003ms returns 0x01000000
T6410 012:418.404 JLINK_ReadReg(MSP)
T6410 012:418.407 - 0.003ms returns 0x20006118
T6410 012:418.410 JLINK_ReadReg(PSP)
T6410 012:418.414 - 0.003ms returns 0x20002EF0
T6410 012:418.418 JLINK_ReadReg(CFBP)
T6410 012:418.421 - 0.003ms returns 0x06000000
T6410 012:418.424 JLINK_ReadReg(FPSCR)
T6410 012:422.594 - 4.168ms returns 0x00000000
T6410 012:422.631 JLINK_ReadReg(FPS0)
T6410 012:422.635 - 0.004ms returns 0x00000000
T6410 012:422.639 JLINK_ReadReg(FPS1)
T6410 012:422.642 - 0.002ms returns 0x80000000
T6410 012:422.646 JLINK_ReadReg(FPS2)
T6410 012:422.648 - 0.002ms returns 0x447A0000
T6410 012:422.652 JLINK_ReadReg(FPS3)
T6410 012:422.654 - 0.002ms returns 0x00000000
T6410 012:422.658 JLINK_ReadReg(FPS4)
T6410 012:422.661 - 0.002ms returns 0x00000000
T6410 012:422.664 JLINK_ReadReg(FPS5)
T6410 012:422.667 - 0.002ms returns 0x00000000
T6410 012:422.670 JLINK_ReadReg(FPS6)
T6410 012:422.674 - 0.002ms returns 0x00000000
T6410 012:422.677 JLINK_ReadReg(FPS7)
T6410 012:422.680 - 0.002ms returns 0x00000000
T6410 012:422.683 JLINK_ReadReg(FPS8)
T6410 012:422.686 - 0.002ms returns 0x00000000
T6410 012:422.690 JLINK_ReadReg(FPS9)
T6410 012:422.693 - 0.002ms returns 0x00000000
T6410 012:422.696 JLINK_ReadReg(FPS10)
T6410 012:422.699 - 0.002ms returns 0x00000000
T6410 012:422.702 JLINK_ReadReg(FPS11)
T6410 012:422.705 - 0.002ms returns 0x00000000
T6410 012:422.709 JLINK_ReadReg(FPS12)
T6410 012:422.711 - 0.002ms returns 0x00000000
T6410 012:422.715 JLINK_ReadReg(FPS13)
T6410 012:422.718 - 0.002ms returns 0x00000000
T6410 012:422.721 JLINK_ReadReg(FPS14)
T6410 012:422.724 - 0.002ms returns 0x00000000
T6410 012:422.727 JLINK_ReadReg(FPS15)
T6410 012:422.730 - 0.002ms returns 0x00000000
T6410 012:422.734 JLINK_ReadReg(FPS16)
T6410 012:422.737 - 0.002ms returns 0x00000000
T6410 012:422.740 JLINK_ReadReg(FPS17)
T6410 012:422.742 - 0.002ms returns 0x40E00000
T6410 012:422.746 JLINK_ReadReg(FPS18)
T6410 012:422.754 - 0.007ms returns 0x3F5DB3D7
T6410 012:422.757 JLINK_ReadReg(FPS19)
T6410 012:422.760 - 0.002ms returns 0x4059999A
T6410 012:422.763 JLINK_ReadReg(FPS20)
T6410 012:422.766 - 0.002ms returns 0x3F000000
T6410 012:422.770 JLINK_ReadReg(FPS21)
T6410 012:422.773 - 0.002ms returns 0x00000000
T6410 012:422.776 JLINK_ReadReg(FPS22)
T6410 012:422.779 - 0.002ms returns 0x3EE9FBE7
T6410 012:422.782 JLINK_ReadReg(FPS23)
T6410 012:422.785 - 0.002ms returns 0x00000000
T6410 012:422.789 JLINK_ReadReg(FPS24)
T6410 012:422.791 - 0.002ms returns 0xBF5DB3D7
T6410 012:422.795 JLINK_ReadReg(FPS25)
T6410 012:422.798 - 0.002ms returns 0x00000000
T6410 012:422.801 JLINK_ReadReg(FPS26)
T6410 012:422.804 - 0.002ms returns 0x3CF5C28F
T6410 012:422.807 JLINK_ReadReg(FPS27)
T6410 012:422.810 - 0.002ms returns 0x00000000
T6410 012:422.814 JLINK_ReadReg(FPS28)
T6410 012:422.817 - 0.002ms returns 0xC2700000
T6410 012:422.820 JLINK_ReadReg(FPS29)
T6410 012:422.822 - 0.002ms returns 0x00000000
T6410 012:422.826 JLINK_ReadReg(FPS30)
T6410 012:422.829 - 0.002ms returns 0x42700000
T6410 012:422.833 JLINK_ReadReg(FPS31)
T6410 012:422.835 - 0.002ms returns 0x00000000
T6410 012:422.842 JLINK_ReadMemEx(0x20005344, 0x4 Bytes, Flags = 0x02000000)
T6410 012:422.848   CPU_ReadMem(64 bytes @ 0x20005340)
T6410 012:423.464    -- Updating C cache (64 bytes @ 0x20005340)
T6410 012:423.470    -- Read from C cache (4 bytes @ 0x20005344)
T6410 012:423.475   Data:  09 00 00 00
T6410 012:423.480 - 0.638ms returns 4 (0x4)
T6410 012:423.486 JLINK_ReadMemEx(0x20000E54, 0x4 Bytes, Flags = 0x02000000)
T6410 012:423.491   CPU_ReadMem(64 bytes @ 0x20000E40)
T6410 012:424.253    -- Updating C cache (64 bytes @ 0x20000E40)
T6410 012:424.286    -- Read from C cache (4 bytes @ 0x20000E54)
T6410 012:424.290   Data:  08 2F 00 20
T6410 012:424.299 - 0.812ms returns 4 (0x4)
T684C 012:425.726 JLINK_ReadMemEx(0x200001F1, 0x1 Bytes, Flags = 0x02000000)
T684C 012:425.737   CPU_ReadMem(64 bytes @ 0x200001C0)
T684C 012:426.508    -- Updating C cache (64 bytes @ 0x200001C0)
T684C 012:426.520    -- Read from C cache (1 bytes @ 0x200001F1)
T684C 012:426.525   Data:  00
T684C 012:426.529 - 0.802ms returns 1 (0x1)
T684C 012:426.537 JLINK_ReadMemEx(0x20002EF4, 0x4 Bytes, Flags = 0x02000000)
T684C 012:426.542   CPU_ReadMem(64 bytes @ 0x20002EC0)
T684C 012:427.285    -- Updating C cache (64 bytes @ 0x20002EC0)
T684C 012:427.321    -- Read from C cache (4 bytes @ 0x20002EF4)
T684C 012:427.350   Data:  E4 0C 00 00
T684C 012:427.378 - 0.841ms returns 4 (0x4)
T684C 012:428.386 JLINK_ReadMemEx(0x200001F1, 0x1 Bytes, Flags = 0x02000000)
T684C 012:428.397    -- Read from C cache (1 bytes @ 0x200001F1)
T684C 012:428.402   Data:  00
T684C 012:428.407 - 0.021ms returns 1 (0x1)
T684C 012:428.412 JLINK_ReadMemEx(0x20002EF4, 0x4 Bytes, Flags = 0x02000000)
T684C 012:428.416    -- Read from C cache (4 bytes @ 0x20002EF4)
T684C 012:428.421   Data:  E4 0C 00 00
T684C 012:428.425 - 0.013ms returns 4 (0x4)
T684C 012:428.474 JLINK_ReadMemEx(0x20000D48, 0x1 Bytes, Flags = 0x02000000)
T684C 012:428.479   CPU_ReadMem(64 bytes @ 0x20000D40)
T684C 012:429.276    -- Updating C cache (64 bytes @ 0x20000D40)
T684C 012:429.309    -- Read from C cache (1 bytes @ 0x20000D48)
T684C 012:429.337   Data:  01
T684C 012:429.366 - 0.891ms returns 1 (0x1)
T684C 012:429.449 JLINK_ReadMemEx(0x20000D48, 0x1 Bytes, Flags = 0x02000000)
T684C 012:429.474    -- Read from C cache (1 bytes @ 0x20000D48)
T684C 012:429.501   Data:  01
T684C 012:429.530 - 0.083ms returns 1 (0x1)
T684C 012:432.676 JLINK_ReadMemEx(0x20000D49, 0x1 Bytes, Flags = 0x02000000)
